Circuit: * G:\My Drive\DTU\Fagprojekt Elektro\Design\Spice\Draft1.asc

Error on line 1221 : .error
	 Unknown control card
Instance "m1": Length shorter than recommended for a level 1 MOSFET.
Instance "m1": Width narrower than recommended for a level 1 MOSFET.
Instance "m2": Length shorter than recommended for a level 1 MOSFET.
Instance "m2": Width narrower than recommended for a level 1 MOSFET.
Instance "m3": Length shorter than recommended for a level 1 MOSFET.
Instance "m3": Width narrower than recommended for a level 1 MOSFET.
Direct Newton iteration for .op point succeeded.
Semiconductor Device Operating Points:
                        --- MOSFET Transistors ---
Name:          m1          m2          m3
Model:        nmos        nmos        nmos
Id:          4.50e-05    4.50e-05    4.50e-05
Vgs:         6.50e-01    6.50e-01    6.50e-01
Vds:         6.50e-01    1.55e+00    6.50e-01
Vbs:         0.00e+00    0.00e+00    0.00e+00
Vth:         4.00e-01    4.00e-01    4.00e-01
Vdsat:       2.50e-01    2.50e-01    2.50e-01
Gm:          3.60e-04    3.60e-04    3.60e-04
Gds:         0.00e+00    0.00e+00    0.00e+00
Gmb:         0.00e+00    0.00e+00    0.00e+00
Cbd:         0.00e+00    0.00e+00    0.00e+00
Cbs:         0.00e+00    0.00e+00    0.00e+00
Cgsov:       0.00e+00    0.00e+00    0.00e+00
Cgdov:       0.00e+00    0.00e+00    0.00e+00
Cgbov:       0.00e+00    0.00e+00    0.00e+00
Cgs:         0.00e+00    0.00e+00    0.00e+00
Cgd:         0.00e+00    0.00e+00    0.00e+00
Cgb:         0.00e+00    0.00e+00    0.00e+00



Date: Fri Sep 22 08:30:19 2023
Total elapsed time: 0.178 seconds.

tnom = 27
temp = 27
method = trap
totiter = 9
traniter = 0
tranpoints = 0
accept = 0
rejected = 0
matrix size = 7
fillins = 0
solver = Normal
Matrix Compiler1: 160 bytes object code size
Matrix Compiler2: 413 bytes object code size
